
T3048 000:049 SEGGER J-Link V4.58a Log File (0001ms, 0050ms total)
T3048 000:049 DLL Compiled: Dec  5 2012 18:38:08 (0001ms, 0050ms total)
T3048 000:049 Logging started @ 2018-03-17 21:17 (0001ms, 0050ms total)
T3048 000:050 JLINK_SetWarnOutHandler(...) (0000ms, 0050ms total)
T3048 000:050 JLINK_OpenEx(...)
Firmware: J-Link ARM-OB STM32 compiled Aug 22 2012 19:52:04
Hardware: V7.00
S/N: 20090928
Feature(s): RDI,FlashDL,FlashBP,JFlash,GDBFull  returns O.K. (0017ms, 0067ms total)
T3048 000:067 JLINK_SetErrorOutHandler(...) (0000ms, 0067ms total)
T3048 000:067 JLINK_ExecCommand("ProjectFile = "E:\PLAY\Smart_Yacht\Preparing Initial\Routine\STM32\V1.1\Project\RVMDK£¨uv4£©\JLinkSettings.ini"", ...)  returns 0x00 (0001ms, 0068ms total)
T3048 000:075 JLINK_ExecCommand("Device = STM32F103ZE", ...)
                JLINK_ExecCommand("map ram 0x20000000 - 0x2000FFFF", ...)  returns 0x00 (0000ms, 0000ms total)
                JLINK_AddMirrorAreaEx(Addr = 0x00000000, Size = 0x00000000) (0000ms, 0000ms total)
              Device "STM32F103ZE" selected (512 KB flash, 64 KB RAM).  returns 0x00 (0010ms, 0078ms total)
T3048 000:085 JLINK_ExecCommand("DisableConnectionTimeout", ...)  returns 0x00 (0000ms, 0078ms total)
T3048 000:085 JLINK_GetHardwareVersion()  returns 0x11170 (0000ms, 0078ms total)
T3048 000:085 JLINK_GetDLLVersion()  returns 45801 (0000ms, 0078ms total)
T3048 000:085 JLINK_GetFirmwareString(...) (0000ms, 0078ms total)
T3048 000:097 JLINK_GetDLLVersion()  returns 45801 (0000ms, 0078ms total)
T3048 000:097 JLINK_GetCompileDateTime() (0000ms, 0078ms total)
T3048 000:099 JLINK_GetFirmwareString(...) (0000ms, 0078ms total)
T3048 000:102 JLINK_GetHardwareVersion()  returns 0x11170 (0000ms, 0078ms total)
T3048 000:115 JLINK_TIF_Select(JLINKARM_TIF_SWD)  returns 0x00 (0002ms, 0080ms total)
T3048 000:117 JLINK_SetSpeed(20000) (0001ms, 0081ms total)
T3048 000:118 JLINK_GetId() >0x108 TIF>Found SWD-DP with ID 0x1BA01477 >0x0D TIF> >0x28 TIF> >0x0D TIF> >0x28 TIF> >0x0D TIF> >0x21 TIF> >0x0D TIF> >0x28 TIF> >0x0D TIF> >0x28 TIF> >0x0D TIF> >0x28 TIF> >0x0D TIF> >0x21 TIF> >0x0D TIF> >0x21 TIF> >0x0D TIF> >0x28 TIF> >0x0D TIF> >0x21 TIF> >0x0D TIF> >0x21 TIF> >0x108 TIF>Found SWD-DP with ID 0x1BA01477 >0x0D TIF> >0x21 TIF> >0x0D TIF> >0x28 TIF> >0x0D TIF> >0x28 TIF> >0x0D TIF> >0x21 TIF> >0x0D TIF> >0x21 TIF> >0x0D TIF> >0x28 TIF> >0x0D TIF> >0x21 TIF>
 >0x0D TIF> >0x21 TIF> >0x0D TIF> >0x21 TIF> >0x0D TIF> >0x21 TIF> >0x0D TIF> >0x21 TIF> >0x0D TIF> >0x28 TIF> >0x0D TIF> >0x28 TIF> >0x0D TIF> >0x21 TIF> >0x0D TIF> >0x21 TIF> >0x0D TIF> >0x28 TIF> >0x0D TIF> >0x21 TIF> >0x0D TIF> >0x21 TIF> >0x0D TIF> >0x28 TIF> >0x0D TIF> >0x28 TIF> >0x0D TIF> >0x28 TIF> >0x0D TIF> >0x21 TIF> >0x0D TIF> >0x21 TIF> >0x0D TIF> >0x28 TIF> >0x0D TIF> >0x28 TIF> >0x0D TIF> >0x28 TIF> >0x0D TIF> >0x21 TIF> >0x0D TIF> >0x21 TIF> >0x0D TIF> >0x21 TIF>TPIU fitted.ETM fitted.
 >0x0D TIF> >0x28 TIF> >0x0D TIF> >0x21 TIF> >0x0D TIF> >0x21 TIF> >0x0D TIF> >0x28 TIF> >0x0D TIF> >0x21 TIF> >0x0D TIF> >0x21 TIF>FPUnit: 6 code (BP) slots and 2 literal slots >0x0D TIF> >0x28 TIF> >0x0D TIF> >0x21 TIF> >0x0D TIF> >0x21 TIF> >0x0D TIF> >0x28 TIF> >0x0D TIF> >0x21 TIF> >0x0D TIF> >0x21 TIF> >0x0D TIF> >0x28 TIF> >0x0D TIF> >0x21 TIF> >0x0D TIF> >0x21 TIF> >0x0D TIF> >0x28 TIF> >0x0D TIF> >0x21 TIF> >0x0D TIF> >0x21 TIF>Found Cortex-M3 r1p1, Little endian. >0x0D TIF> >0x21 TIF>
  returns 0x1BA01477 (0079ms, 0160ms total)
T3048 000:197 JLINK_GetDLLVersion()  returns 45801 (0000ms, 0160ms total)
T3048 000:197 JLINK_CORE_GetFound()  returns 0x30000FF (0000ms, 0160ms total)
T3048 000:202 JLINK_ReadMem (0xE00FF000, 0x0020 Bytes, ...) -- CPU is running -- CPU_ReadMem(32 bytes @ 0xE00FF000) -- Data:  03 F0 F0 FF 03 20 F0 FF 03 30 F0 FF 03 10 F0 FF ...  returns 0x00 (0002ms, 0162ms total)
T3048 000:204 JLINK_ReadMem (0xE000EFF0, 0x0010 Bytes, ...) -- CPU is running -- CPU_ReadMem(16 bytes @ 0xE000EFF0) -- Data:  0D 00 00 00 E0 00 00 00 05 00 00 00 B1 00 00 00  returns 0x00 (0001ms, 0163ms total)
T3048 000:205 JLINK_ReadMem (0xE000EFD0, 0x0020 Bytes, ...) -- CPU is running -- CPU_ReadMem(32 bytes @ 0xE000EFD0) -- Data:  04 00 00 00 00 00 00 00 00 00 00 00 00 00 00 00 ...  returns 0x00 (0001ms, 0164ms total)
T3048 000:206 JLINK_ReadMem (0xE0001FF0, 0x0010 Bytes, ...) -- CPU is running -- CPU_ReadMem(16 bytes @ 0xE0001FF0) -- Data:  0D 00 00 00 E0 00 00 00 05 00 00 00 B1 00 00 00  returns 0x00 (0001ms, 0165ms total)
T3048 000:207 JLINK_ReadMem (0xE0001FD0, 0x0020 Bytes, ...) -- CPU is running -- CPU_ReadMem(32 bytes @ 0xE0001FD0) -- Data:  04 00 00 00 00 00 00 00 00 00 00 00 00 00 00 00 ...  returns 0x00 (0001ms, 0166ms total)
T3048 000:208 JLINK_ReadMem (0xE0002FF0, 0x0010 Bytes, ...) -- CPU is running -- CPU_ReadMem(16 bytes @ 0xE0002FF0) -- Data:  0D 00 00 00 E0 00 00 00 05 00 00 00 B1 00 00 00  returns 0x00 (0001ms, 0167ms total)
T3048 000:209 JLINK_ReadMem (0xE0002FD0, 0x0020 Bytes, ...) -- CPU is running -- CPU_ReadMem(32 bytes @ 0xE0002FD0) -- Data:  04 00 00 00 00 00 00 00 00 00 00 00 00 00 00 00 ...  returns 0x00 (0001ms, 0168ms total)
T3048 000:210 JLINK_ReadMem (0xE0000FF0, 0x0010 Bytes, ...) -- CPU is running -- CPU_ReadMem(16 bytes @ 0xE0000FF0) -- Data:  0D 00 00 00 E0 00 00 00 05 00 00 00 B1 00 00 00  returns 0x00 (0001ms, 0169ms total)
T3048 000:211 JLINK_ReadMem (0xE0000FD0, 0x0020 Bytes, ...) -- CPU is running -- CPU_ReadMem(32 bytes @ 0xE0000FD0) -- Data:  04 00 00 00 00 00 00 00 00 00 00 00 00 00 00 00 ...  returns 0x00 (0001ms, 0170ms total)
T3048 000:212 JLINK_ReadMem (0xE0040FF0, 0x0010 Bytes, ...) -- CPU is running -- CPU_ReadMem(16 bytes @ 0xE0040FF0) -- Data:  0D 00 00 00 90 00 00 00 05 00 00 00 B1 00 00 00  returns 0x00 (0001ms, 0171ms total)
T3048 000:213 JLINK_ReadMem (0xE0040FD0, 0x0020 Bytes, ...) -- CPU is running -- CPU_ReadMem(32 bytes @ 0xE0040FD0) -- Data:  04 00 00 00 00 00 00 00 00 00 00 00 00 00 00 00 ...  returns 0x00 (0001ms, 0172ms total)
T3048 000:214 JLINK_ReadMem (0xE0041FF0, 0x0010 Bytes, ...) -- CPU is running -- CPU_ReadMem(16 bytes @ 0xE0041FF0) -- Data:  0D 00 00 00 90 00 00 00 05 00 00 00 B1 00 00 00  returns 0x00 (0003ms, 0175ms total)
T3048 000:217 JLINK_ReadMem (0xE0041FD0, 0x0020 Bytes, ...) -- CPU is running -- CPU_ReadMem(32 bytes @ 0xE0041FD0) -- Data:  04 00 00 00 00 00 00 00 00 00 00 00 00 00 00 00 ...  returns 0x00 (0001ms, 0176ms total)
T3048 000:218 JLINK_ReadMemU32(0xE000ED00, 0x0001 Items, ...) -- CPU is running -- CPU_ReadMem(4 bytes @ 0xE000ED00) -- Data:  31 C2 1F 41  returns 0x01 (0001ms, 0177ms total)
T3048 000:219 JLINK_SetResetType(JLINKARM_RESET_TYPE_NORMAL)  returns JLINKARM_RESET_TYPE_NORMAL (0000ms, 0177ms total)
T3048 000:219 JLINK_Reset() -- CPU is running -- CPU_WriteMem(4 bytes @ 0xE000EDF0) -- CPU is running -- CPU_WriteMem(4 bytes @ 0xE000EDFC) >0x35 TIF> -- CPU is running -- CPU_WriteMem(4 bytes @ 0xE000ED0C) -- CPU is running -- CPU_ReadMem(4 bytes @ 0xE000EDF0) -- CPU is running -- CPU_ReadMem(4 bytes @ 0xE000EDF0) -- CPU is running -- CPU_WriteMem(4 bytes @ 0xE000EDF0) -- CPU is running -- CPU_WriteMem(4 bytes @ 0xE000EDFC) -- CPU is running -- CPU_ReadMem(4 bytes @ 0xE000EDF0)
 -- CPU_WriteMem(4 bytes @ 0xE0002000) (0022ms, 0199ms total)
T3048 000:241 JLINK_Halt()  returns 0x00 (0000ms, 0199ms total)
T3048 000:241 JLINK_IsHalted()  returns TRUE (0000ms, 0199ms total)
T3048 000:241 JLINK_ReadMemU32(0xE000EDF0, 0x0001 Items, ...) -- CPU_ReadMem(4 bytes @ 0xE000EDF0) -- Data:  03 00 03 00  returns 0x01 (0000ms, 0199ms total)
T3048 000:241 JLINK_WriteU32(0xE000EDF0, 0xA05F0003) -- CPU_WriteMem(4 bytes @ 0xE000EDF0)  returns 0x00 (0002ms, 0201ms total)
T3048 000:243 JLINK_WriteU32(0xE000EDFC, 0x01000000) -- CPU_WriteMem(4 bytes @ 0xE000EDFC)  returns 0x00 (0001ms, 0202ms total)
T3048 000:254 JLINK_GetHWStatus(...)  returns 0x00 (0001ms, 0203ms total)
T3048 000:264 JLINK_GetNumBPUnits(Type = 0xFFFFFF00)  returns 0x06 (0000ms, 0203ms total)
T3048 000:264 JLINK_GetNumBPUnits(Type = 0xF0)  returns 0x2000 (0000ms, 0203ms total)
T3048 000:264 JLINK_GetNumWPUnits()  returns 0x04 (0000ms, 0203ms total)
T3048 000:271 JLINK_GetSpeed()  returns 0xFA0 (0000ms, 0203ms total)
T3048 000:283 JLINK_ReadMemU32(0xE000E004, 0x0001 Items, ...) -- CPU_ReadMem(4 bytes @ 0xE000E004) -- Data:  01 00 00 00  returns 0x01 (0001ms, 0204ms total)
T3048 000:284 JLINK_ReadMemU32(0xE000E004, 0x0001 Items, ...) -- CPU_ReadMem(4 bytes @ 0xE000E004) -- Data:  01 00 00 00  returns 0x01 (0001ms, 0205ms total)
T3048 000:285 JLINK_WriteMem(0xE0001000, 0x001C Bytes, ...) -- Data:  01 00 00 00 00 00 00 00 00 00 00 00 00 00 00 00 ... -- CPU_WriteMem(28 bytes @ 0xE0001000)  returns 0x1C (0001ms, 0206ms total)
T3048 000:286 JLINK_ReadMem (0xE0001000, 0x001C Bytes, ...) -- CPU_ReadMem(28 bytes @ 0xE0001000) -- Data:  01 00 00 40 00 00 00 00 00 00 00 00 00 00 00 00 ...  returns 0x00 (0001ms, 0207ms total)
T3048 000:287 JLINK_Halt()  returns 0x00 (0000ms, 0207ms total)
T3048 000:287 JLINK_IsHalted()  returns TRUE (0000ms, 0207ms total)
T3048 000:293 JLINK_WriteMem(0x20000000, 0x0164 Bytes, ...) -- Data:  00 BE 0A E0 0D 78 2D 06 68 40 08 24 40 00 00 D3 ... -- CPU_WriteMem(356 bytes @ 0x20000000)  returns 0x164 (0005ms, 0212ms total)
T3048 000:298 JLINK_WriteReg(R0, 0x08000000)  returns 0x00 (0000ms, 0212ms total)
T3048 000:298 JLINK_WriteReg(R1, 0x00B71B00)  returns 0x00 (0000ms, 0212ms total)
T3048 000:298 JLINK_WriteReg(R2, 0x00000001)  returns 0x00 (0000ms, 0212ms total)
T3048 000:298 JLINK_WriteReg(R3, 0x00000000)  returns 0x00 (0000ms, 0212ms total)
T3048 000:298 JLINK_WriteReg(R4, 0x00000000)  returns 0x00 (0000ms, 0212ms total)
T3048 000:298 JLINK_WriteReg(R5, 0x00000000)  returns 0x00 (0000ms, 0212ms total)
T3048 000:298 JLINK_WriteReg(R6, 0x00000000)  returns 0x00 (0000ms, 0212ms total)
T3048 000:298 JLINK_WriteReg(R7, 0x00000000)  returns 0x00 (0000ms, 0212ms total)
T3048 000:298 JLINK_WriteReg(R8, 0x00000000)  returns 0x00 (0000ms, 0212ms total)
T3048 000:298 JLINK_WriteReg(R9, 0x20000160)  returns 0x00 (0000ms, 0212ms total)
T3048 000:298 JLINK_WriteReg(R10, 0x00000000)  returns 0x00 (0000ms, 0212ms total)
T3048 000:298 JLINK_WriteReg(R11, 0x00000000)  returns 0x00 (0000ms, 0212ms total)
T3048 000:298 JLINK_WriteReg(R12, 0x00000000)  returns 0x00 (0000ms, 0212ms total)
T3048 000:298 JLINK_WriteReg(R13, 0x20000800)  returns 0x00 (0000ms, 0212ms total)
T3048 000:298 JLINK_WriteReg(R14, 0x20000001)  returns 0x00 (0000ms, 0212ms total)
T3048 000:298 JLINK_WriteReg(R15, 0x20000038)  returns 0x00 (0000ms, 0212ms total)
T3048 000:298 JLINK_WriteReg(XPSR, 0x01000000)  returns 0x00 (0000ms, 0212ms total)
T3048 000:298 JLINK_WriteReg(MSP, 0x20000800)  returns 0x00 (0000ms, 0212ms total)
T3048 000:298 JLINK_WriteReg(PSP, 0x20000800)  returns 0x00 (0000ms, 0212ms total)
T3048 000:298 JLINK_WriteReg(CFBP, 0x00000000)  returns 0x00 (0000ms, 0212ms total)
T3048 000:298 JLINK_SetBPEx(Addr = 0x20000000, Type = 0xFFFFFFF2) -- CPU_ReadMem(2 bytes @ 0x20000000)  returns 0x00000001 (0001ms, 0213ms total)
T3048 000:299 JLINK_Go() -- CPU_WriteMem(2 bytes @ 0x20000000) -- CPU_WriteMem(4 bytes @ 0xE0002008) -- CPU_WriteMem(4 bytes @ 0xE000200C) -- CPU_WriteMem(4 bytes @ 0xE0002010) -- CPU_WriteMem(4 bytes @ 0xE0002014) -- CPU_WriteMem(4 bytes @ 0xE0002018) -- CPU_WriteMem(4 bytes @ 0xE000201C) (0009ms, 0222ms total)
T3048 000:308 JLINK_IsHalted() -- CPU_ReadMem(2 bytes @ 0x20000000)  returns TRUE (0005ms, 0227ms total)
T3048 000:313 JLINK_ReadReg(R15)  returns 0x20000000 (0000ms, 0222ms total)
T3048 000:313 JLINK_ClrBPEx(BPHandle = 0x00000001)  returns 0x00 (0000ms, 0222ms total)
T3048 000:313 JLINK_ReadReg(R0)  returns 0x00000000 (0000ms, 0222ms total)
T3048 000:313 JLINK_WriteReg(R0, 0x08000000)  returns 0x00 (0000ms, 0222ms total)
T3048 000:313 JLINK_WriteReg(R1, 0x00B71B00)  returns 0x00 (0000ms, 0222ms total)
T3048 000:313 JLINK_WriteReg(R2, 0x00000001)  returns 0x00 (0000ms, 0222ms total)
T3048 000:313 JLINK_WriteReg(R3, 0x00000000)  returns 0x00 (0000ms, 0222ms total)
T3048 000:313 JLINK_WriteReg(R4, 0x00000000)  returns 0x00 (0000ms, 0222ms total)
T3048 000:313 JLINK_WriteReg(R5, 0x00000000)  returns 0x00 (0000ms, 0222ms total)
T3048 000:313 JLINK_WriteReg(R6, 0x00000000)  returns 0x00 (0000ms, 0222ms total)
T3048 000:313 JLINK_WriteReg(R7, 0x00000000)  returns 0x00 (0000ms, 0222ms total)
T3048 000:313 JLINK_WriteReg(R8, 0x00000000)  returns 0x00 (0000ms, 0222ms total)
T3048 000:313 JLINK_WriteReg(R9, 0x20000160)  returns 0x00 (0000ms, 0222ms total)
T3048 000:313 JLINK_WriteReg(R10, 0x00000000)  returns 0x00 (0000ms, 0222ms total)
T3048 000:313 JLINK_WriteReg(R11, 0x00000000)  returns 0x00 (0000ms, 0222ms total)
T3048 000:313 JLINK_WriteReg(R12, 0x00000000)  returns 0x00 (0000ms, 0222ms total)
T3048 000:313 JLINK_WriteReg(R13, 0x20000800)  returns 0x00 (0000ms, 0222ms total)
T3048 000:313 JLINK_WriteReg(R14, 0x20000001)  returns 0x00 (0000ms, 0222ms total)
T3048 000:313 JLINK_WriteReg(R15, 0x2000007C)  returns 0x00 (0000ms, 0222ms total)
T3048 000:313 JLINK_WriteReg(XPSR, 0x01000000)  returns 0x00 (0000ms, 0222ms total)
T3048 000:313 JLINK_WriteReg(MSP, 0x20000800)  returns 0x00 (0000ms, 0222ms total)
T3048 000:313 JLINK_WriteReg(PSP, 0x20000800)  returns 0x00 (0000ms, 0222ms total)
T3048 000:313 JLINK_WriteReg(CFBP, 0x00000000)  returns 0x00 (0000ms, 0222ms total)
T3048 000:313 JLINK_SetBPEx(Addr = 0x20000000, Type = 0xFFFFFFF2)  returns 0x00000002 (0000ms, 0222ms total)
T3048 000:313 JLINK_Go() (0002ms, 0224ms total)
T3048 000:316 JLINK_IsHalted()  returns FALSE (0001ms, 0226ms total)
T3048 000:422 JLINK_IsHalted() -- CPU_ReadMem(2 bytes @ 0x20000000)  returns TRUE (0005ms, 0230ms total)
T3048 000:427 JLINK_ReadReg(R15)  returns 0x20000000 (0000ms, 0225ms total)
T3048 000:427 JLINK_ClrBPEx(BPHandle = 0x00000002)  returns 0x00 (0000ms, 0225ms total)
T3048 000:427 JLINK_ReadReg(R0)  returns 0x00000000 (0000ms, 0225ms total)
T3048 000:485 JLINK_WriteReg(R0, 0x00000001)  returns 0x00 (0000ms, 0225ms total)
T3048 000:485 JLINK_WriteReg(R1, 0x00B71B00)  returns 0x00 (0000ms, 0225ms total)
T3048 000:485 JLINK_WriteReg(R2, 0x00000001)  returns 0x00 (0000ms, 0225ms total)
T3048 000:485 JLINK_WriteReg(R3, 0x00000000)  returns 0x00 (0000ms, 0225ms total)
T3048 000:485 JLINK_WriteReg(R4, 0x00000000)  returns 0x00 (0000ms, 0225ms total)
T3048 000:485 JLINK_WriteReg(R5, 0x00000000)  returns 0x00 (0000ms, 0225ms total)
T3048 000:485 JLINK_WriteReg(R6, 0x00000000)  returns 0x00 (0000ms, 0225ms total)
T3048 000:485 JLINK_WriteReg(R7, 0x00000000)  returns 0x00 (0000ms, 0225ms total)
T3048 000:485 JLINK_WriteReg(R8, 0x00000000)  returns 0x00 (0001ms, 0226ms total)
T3048 000:486 JLINK_WriteReg(R9, 0x20000160)  returns 0x00 (0000ms, 0226ms total)
T3048 000:486 JLINK_WriteReg(R10, 0x00000000)  returns 0x00 (0000ms, 0226ms total)
T3048 000:486 JLINK_WriteReg(R11, 0x00000000)  returns 0x00 (0000ms, 0226ms total)
T3048 000:486 JLINK_WriteReg(R12, 0x00000000)  returns 0x00 (0000ms, 0226ms total)
T3048 000:486 JLINK_WriteReg(R13, 0x20000800)  returns 0x00 (0000ms, 0226ms total)
T3048 000:486 JLINK_WriteReg(R14, 0x20000001)  returns 0x00 (0000ms, 0226ms total)
T3048 000:486 JLINK_WriteReg(R15, 0x2000006A)  returns 0x00 (0000ms, 0226ms total)
T3048 000:486 JLINK_WriteReg(XPSR, 0x01000000)  returns 0x00 (0000ms, 0226ms total)
T3048 000:486 JLINK_WriteReg(MSP, 0x20000800)  returns 0x00 (0000ms, 0226ms total)
T3048 000:486 JLINK_WriteReg(PSP, 0x20000800)  returns 0x00 (0000ms, 0226ms total)
T3048 000:486 JLINK_WriteReg(CFBP, 0x00000000)  returns 0x00 (0000ms, 0226ms total)
T3048 000:486 JLINK_SetBPEx(Addr = 0x20000000, Type = 0xFFFFFFF2)  returns 0x00000003 (0000ms, 0226ms total)
T3048 000:486 JLINK_Go() (0002ms, 0228ms total)
T3048 000:488 JLINK_IsHalted() -- CPU_ReadMem(2 bytes @ 0x20000000)  returns TRUE (0006ms, 0234ms total)
T3048 000:494 JLINK_ReadReg(R15)  returns 0x20000000 (0000ms, 0228ms total)
T3048 000:494 JLINK_ClrBPEx(BPHandle = 0x00000003)  returns 0x00 (0000ms, 0228ms total)
T3048 000:494 JLINK_ReadReg(R0)  returns 0x00000000 (0000ms, 0228ms total)
T3048 000:495 JLINK_WriteMem(0x20000000, 0x01B8 Bytes, ...) -- Data:  00 BE 0A E0 0D 78 2D 06 68 40 08 24 40 00 00 D3 ... -- CPU_WriteMem(440 bytes @ 0x20000000)  returns 0x1B8 (0006ms, 0234ms total)
T3048 000:501 JLINK_WriteReg(R0, 0x1FFFF800)  returns 0x00 (0000ms, 0234ms total)
T3048 000:501 JLINK_WriteReg(R1, 0x00B71B00)  returns 0x00 (0000ms, 0234ms total)
T3048 000:501 JLINK_WriteReg(R2, 0x00000001)  returns 0x00 (0001ms, 0235ms total)
T3048 000:502 JLINK_WriteReg(R3, 0x00000000)  returns 0x00 (0000ms, 0235ms total)
T3048 000:502 JLINK_WriteReg(R4, 0x00000000)  returns 0x00 (0000ms, 0235ms total)
T3048 000:502 JLINK_WriteReg(R5, 0x00000000)  returns 0x00 (0000ms, 0235ms total)
T3048 000:502 JLINK_WriteReg(R6, 0x00000000)  returns 0x00 (0000ms, 0235ms total)
T3048 000:502 JLINK_WriteReg(R7, 0x00000000)  returns 0x00 (0000ms, 0235ms total)
T3048 000:502 JLINK_WriteReg(R8, 0x00000000)  returns 0x00 (0000ms, 0235ms total)
T3048 000:502 JLINK_WriteReg(R9, 0x200001B4)  returns 0x00 (0000ms, 0235ms total)
T3048 000:502 JLINK_WriteReg(R10, 0x00000000)  returns 0x00 (0000ms, 0235ms total)
T3048 000:502 JLINK_WriteReg(R11, 0x00000000)  returns 0x00 (0000ms, 0235ms total)
T3048 000:502 JLINK_WriteReg(R12, 0x00000000)  returns 0x00 (0000ms, 0235ms total)
T3048 000:502 JLINK_WriteReg(R13, 0x20000800)  returns 0x00 (0000ms, 0235ms total)
T3048 000:502 JLINK_WriteReg(R14, 0x20000001)  returns 0x00 (0000ms, 0235ms total)
T3048 000:502 JLINK_WriteReg(R15, 0x20000020)  returns 0x00 (0000ms, 0235ms total)
T3048 000:502 JLINK_WriteReg(XPSR, 0x01000000)  returns 0x00 (0000ms, 0235ms total)
T3048 000:502 JLINK_WriteReg(MSP, 0x20000800)  returns 0x00 (0000ms, 0235ms total)
T3048 000:502 JLINK_WriteReg(PSP, 0x20000800)  returns 0x00 (0000ms, 0235ms total)
T3048 000:502 JLINK_WriteReg(CFBP, 0x00000000)  returns 0x00 (0000ms, 0235ms total)
T3048 000:502 JLINK_SetBPEx(Addr = 0x20000000, Type = 0xFFFFFFF2) -- CPU_ReadMem(2 bytes @ 0x20000000)  returns 0x00000004 (0001ms, 0236ms total)
T3048 000:503 JLINK_Go() -- CPU_WriteMem(2 bytes @ 0x20000000) (0004ms, 0240ms total)
T3048 000:507 JLINK_IsHalted() -- CPU_ReadMem(2 bytes @ 0x20000000)  returns TRUE (0005ms, 0245ms total)
T3048 000:512 JLINK_ReadReg(R15)  returns 0x20000000 (0000ms, 0240ms total)
T3048 000:512 JLINK_ClrBPEx(BPHandle = 0x00000004)  returns 0x00 (0000ms, 0240ms total)
T3048 000:512 JLINK_ReadReg(R0)  returns 0x00000000 (0001ms, 0241ms total)
T3048 000:513 JLINK_WriteReg(R0, 0x1FFFF800)  returns 0x00 (0000ms, 0241ms total)
T3048 000:514 JLINK_WriteReg(R1, 0x00B71B00)  returns 0x00 (0000ms, 0241ms total)
T3048 000:514 JLINK_WriteReg(R2, 0x00000001)  returns 0x00 (0000ms, 0241ms total)
T3048 000:514 JLINK_WriteReg(R3, 0x00000000)  returns 0x00 (0000ms, 0241ms total)
T3048 000:514 JLINK_WriteReg(R4, 0x00000000)  returns 0x00 (0000ms, 0241ms total)
T3048 000:514 JLINK_WriteReg(R5, 0x00000000)  returns 0x00 (0000ms, 0241ms total)
T3048 000:514 JLINK_WriteReg(R6, 0x00000000)  returns 0x00 (0000ms, 0241ms total)
T3048 000:514 JLINK_WriteReg(R7, 0x00000000)  returns 0x00 (0000ms, 0241ms total)
T3048 000:514 JLINK_WriteReg(R8, 0x00000000)  returns 0x00 (0000ms, 0241ms total)
T3048 000:514 JLINK_WriteReg(R9, 0x200001B4)  returns 0x00 (0000ms, 0241ms total)
T3048 000:514 JLINK_WriteReg(R10, 0x00000000)  returns 0x00 (0000ms, 0241ms total)
T3048 000:514 JLINK_WriteReg(R11, 0x00000000)  returns 0x00 (0000ms, 0241ms total)
T3048 000:514 JLINK_WriteReg(R12, 0x00000000)  returns 0x00 (0000ms, 0241ms total)
T3048 000:514 JLINK_WriteReg(R13, 0x20000800)  returns 0x00 (0000ms, 0241ms total)
T3048 000:514 JLINK_WriteReg(R14, 0x20000001)  returns 0x00 (0000ms, 0241ms total)
T3048 000:514 JLINK_WriteReg(R15, 0x20000076)  returns 0x00 (0000ms, 0241ms total)
T3048 000:514 JLINK_WriteReg(XPSR, 0x01000000)  returns 0x00 (0000ms, 0241ms total)
T3048 000:514 JLINK_WriteReg(MSP, 0x20000800)  returns 0x00 (0000ms, 0241ms total)
T3048 000:514 JLINK_WriteReg(PSP, 0x20000800)  returns 0x00 (0000ms, 0241ms total)
T3048 000:514 JLINK_WriteReg(CFBP, 0x00000000)  returns 0x00 (0000ms, 0241ms total)
T3048 000:514 JLINK_SetBPEx(Addr = 0x20000000, Type = 0xFFFFFFF2)  returns 0x00000005 (0000ms, 0241ms total)
T3048 000:514 JLINK_Go() (0003ms, 0244ms total)
T3048 000:517 JLINK_IsHalted()  returns FALSE (0001ms, 0245ms total)
T3048 000:601 JLINK_IsHalted() -- CPU_ReadMem(2 bytes @ 0x20000000)  returns TRUE (0005ms, 0249ms total)
T3048 000:606 JLINK_ReadReg(R15)  returns 0x20000000 (0000ms, 0244ms total)
T3048 000:606 JLINK_ClrBPEx(BPHandle = 0x00000005)  returns 0x00 (0000ms, 0244ms total)
T3048 000:606 JLINK_ReadReg(R0)  returns 0x00000000 (0000ms, 0244ms total)
T3048 000:659 JLINK_WriteReg(R0, 0x00000001)  returns 0x00 (0000ms, 0244ms total)
T3048 000:659 JLINK_WriteReg(R1, 0x00B71B00)  returns 0x00 (0000ms, 0244ms total)
T3048 000:659 JLINK_WriteReg(R2, 0x00000001)  returns 0x00 (0000ms, 0244ms total)
T3048 000:659 JLINK_WriteReg(R3, 0x00000000)  returns 0x00 (0000ms, 0244ms total)
T3048 000:659 JLINK_WriteReg(R4, 0x00000000)  returns 0x00 (0000ms, 0244ms total)
T3048 000:659 JLINK_WriteReg(R5, 0x00000000)  returns 0x00 (0000ms, 0244ms total)
T3048 000:659 JLINK_WriteReg(R6, 0x00000000)  returns 0x00 (0000ms, 0244ms total)
T3048 000:659 JLINK_WriteReg(R7, 0x00000000)  returns 0x00 (0000ms, 0244ms total)
T3048 000:659 JLINK_WriteReg(R8, 0x00000000)  returns 0x00 (0000ms, 0244ms total)
T3048 000:659 JLINK_WriteReg(R9, 0x200001B4)  returns 0x00 (0000ms, 0244ms total)
T3048 000:659 JLINK_WriteReg(R10, 0x00000000)  returns 0x00 (0000ms, 0244ms total)
T3048 000:659 JLINK_WriteReg(R11, 0x00000000)  returns 0x00 (0000ms, 0244ms total)
T3048 000:660 JLINK_WriteReg(R12, 0x00000000)  returns 0x00 (0000ms, 0244ms total)
T3048 000:660 JLINK_WriteReg(R13, 0x20000800)  returns 0x00 (0000ms, 0244ms total)
T3048 000:660 JLINK_WriteReg(R14, 0x20000001)  returns 0x00 (0000ms, 0244ms total)
T3048 000:660 JLINK_WriteReg(R15, 0x2000005A)  returns 0x00 (0000ms, 0244ms total)
T3048 000:660 JLINK_WriteReg(XPSR, 0x01000000)  returns 0x00 (0000ms, 0244ms total)
T3048 000:660 JLINK_WriteReg(MSP, 0x20000800)  returns 0x00 (0000ms, 0244ms total)
T3048 000:660 JLINK_WriteReg(PSP, 0x20000800)  returns 0x00 (0000ms, 0244ms total)
T3048 000:660 JLINK_WriteReg(CFBP, 0x00000000)  returns 0x00 (0000ms, 0244ms total)
T3048 000:660 JLINK_SetBPEx(Addr = 0x20000000, Type = 0xFFFFFFF2)  returns 0x00000006 (0000ms, 0244ms total)
T3048 000:660 JLINK_Go() (0003ms, 0247ms total)
T3048 000:663 JLINK_IsHalted() -- CPU_ReadMem(2 bytes @ 0x20000000)  returns TRUE (0005ms, 0252ms total)
T3048 000:668 JLINK_ReadReg(R15)  returns 0x20000000 (0000ms, 0247ms total)
T3048 000:668 JLINK_ClrBPEx(BPHandle = 0x00000006)  returns 0x00 (0000ms, 0247ms total)
T3048 000:668 JLINK_ReadReg(R0)  returns 0x00000000 (0000ms, 0247ms total)
T3048 000:687 JLINK_WriteMem(0x20000000, 0x0164 Bytes, ...) -- Data:  00 BE 0A E0 0D 78 2D 06 68 40 08 24 40 00 00 D3 ... -- CPU_WriteMem(356 bytes @ 0x20000000)  returns 0x164 (0005ms, 0252ms total)
T3048 000:692 JLINK_WriteReg(R0, 0x08000000)  returns 0x00 (0000ms, 0252ms total)
T3048 000:692 JLINK_WriteReg(R1, 0x00B71B00)  returns 0x00 (0000ms, 0252ms total)
T3048 000:692 JLINK_WriteReg(R2, 0x00000002)  returns 0x00 (0000ms, 0252ms total)
T3048 000:692 JLINK_WriteReg(R3, 0x00000000)  returns 0x00 (0000ms, 0252ms total)
T3048 000:692 JLINK_WriteReg(R4, 0x00000000)  returns 0x00 (0000ms, 0252ms total)
T3048 000:692 JLINK_WriteReg(R5, 0x00000000)  returns 0x00 (0000ms, 0252ms total)
T3048 000:692 JLINK_WriteReg(R6, 0x00000000)  returns 0x00 (0000ms, 0252ms total)
T3048 000:692 JLINK_WriteReg(R7, 0x00000000)  returns 0x00 (0000ms, 0252ms total)
T3048 000:692 JLINK_WriteReg(R8, 0x00000000)  returns 0x00 (0000ms, 0252ms total)
T3048 000:692 JLINK_WriteReg(R9, 0x20000160)  returns 0x00 (0000ms, 0252ms total)
T3048 000:692 JLINK_WriteReg(R10, 0x00000000)  returns 0x00 (0000ms, 0252ms total)
T3048 000:692 JLINK_WriteReg(R11, 0x00000000)  returns 0x00 (0000ms, 0252ms total)
T3048 000:692 JLINK_WriteReg(R12, 0x00000000)  returns 0x00 (0000ms, 0252ms total)
T3048 000:693 JLINK_WriteReg(R13, 0x20000800)  returns 0x00 (0000ms, 0253ms total)
T3048 000:693 JLINK_WriteReg(R14, 0x20000001)  returns 0x00 (0000ms, 0253ms total)
T3048 000:693 JLINK_WriteReg(R15, 0x20000038)  returns 0x00 (0000ms, 0253ms total)
T3048 000:693 JLINK_WriteReg(XPSR, 0x01000000)  returns 0x00 (0000ms, 0253ms total)
T3048 000:693 JLINK_WriteReg(MSP, 0x20000800)  returns 0x00 (0000ms, 0253ms total)
T3048 000:693 JLINK_WriteReg(PSP, 0x20000800)  returns 0x00 (0000ms, 0253ms total)
T3048 000:693 JLINK_WriteReg(CFBP, 0x00000000)  returns 0x00 (0000ms, 0253ms total)
T3048 000:693 JLINK_SetBPEx(Addr = 0x20000000, Type = 0xFFFFFFF2) -- CPU_ReadMem(2 bytes @ 0x20000000)  returns 0x00000007 (0002ms, 0255ms total)
T3048 000:695 JLINK_Go() -- CPU_WriteMem(2 bytes @ 0x20000000) (0004ms, 0259ms total)
T3048 000:699 JLINK_IsHalted() -- CPU_ReadMem(2 bytes @ 0x20000000)  returns TRUE (0006ms, 0265ms total)
T3048 000:705 JLINK_ReadReg(R15)  returns 0x20000000 (0000ms, 0259ms total)
T3048 000:705 JLINK_ClrBPEx(BPHandle = 0x00000007)  returns 0x00 (0000ms, 0259ms total)
T3048 000:705 JLINK_ReadReg(R0)  returns 0x00000000 (0000ms, 0259ms total)
T3048 000:706 JLINK_WriteMem(0x20000164, 0x0400 Bytes, ...) -- Data:  68 40 00 20 45 01 00 08 85 21 00 08 87 21 00 08 ... -- CPU_WriteMem(1024 bytes @ 0x20000164)  returns 0x400 (0013ms, 0272ms total)
T3048 000:719 JLINK_WriteReg(R0, 0x08000000)  returns 0x00 (0000ms, 0272ms total)
T3048 000:719 JLINK_WriteReg(R1, 0x00000400)  returns 0x00 (0000ms, 0272ms total)
T3048 000:719 JLINK_WriteReg(R2, 0x20000164)  returns 0x00 (0000ms, 0272ms total)
T3048 000:719 JLINK_WriteReg(R3, 0x00000000)  returns 0x00 (0000ms, 0272ms total)
T3048 000:719 JLINK_WriteReg(R4, 0x00000000)  returns 0x00 (0000ms, 0272ms total)
T3048 000:719 JLINK_WriteReg(R5, 0x00000000)  returns 0x00 (0000ms, 0272ms total)
T3048 000:719 JLINK_WriteReg(R6, 0x00000000)  returns 0x00 (0000ms, 0272ms total)
T3048 000:719 JLINK_WriteReg(R7, 0x00000000)  returns 0x00 (0000ms, 0272ms total)
T3048 000:719 JLINK_WriteReg(R8, 0x00000000)  returns 0x00 (0000ms, 0272ms total)
T3048 000:719 JLINK_WriteReg(R9, 0x20000160)  returns 0x00 (0000ms, 0272ms total)
T3048 000:719 JLINK_WriteReg(R10, 0x00000000)  returns 0x00 (0000ms, 0272ms total)
T3048 000:719 JLINK_WriteReg(R11, 0x00000000)  returns 0x00 (0000ms, 0272ms total)
T3048 000:719 JLINK_WriteReg(R12, 0x00000000)  returns 0x00 (0001ms, 0273ms total)
T3048 000:720 JLINK_WriteReg(R13, 0x20000800)  returns 0x00 (0000ms, 0273ms total)
T3048 000:720 JLINK_WriteReg(R14, 0x20000001)  returns 0x00 (0000ms, 0273ms total)
T3048 000:720 JLINK_WriteReg(R15, 0x200000F4)  returns 0x00 (0000ms, 0273ms total)
T3048 000:720 JLINK_WriteReg(XPSR, 0x01000000)  returns 0x00 (0000ms, 0273ms total)
T3048 000:720 JLINK_WriteReg(MSP, 0x20000800)  returns 0x00 (0000ms, 0273ms total)
T3048 000:720 JLINK_WriteReg(PSP, 0x20000800)  returns 0x00 (0000ms, 0273ms total)
T3048 000:720 JLINK_WriteReg(CFBP, 0x00000000)  returns 0x00 (0000ms, 0273ms total)
T3048 000:720 JLINK_SetBPEx(Addr = 0x20000000, Type = 0xFFFFFFF2)  returns 0x00000008 (0000ms, 0273ms total)
T3048 000:720 JLINK_Go() (0003ms, 0276ms total)
T3048 000:723 JLINK_IsHalted()  returns FALSE (0001ms, 0277ms total)
T3048 000:821 JLINK_IsHalted() -- CPU_ReadMem(2 bytes @ 0x20000000)  returns TRUE (0005ms, 0281ms total)
T3048 000:826 JLINK_ReadReg(R15)  returns 0x20000000 (0000ms, 0276ms total)
T3048 000:826 JLINK_ClrBPEx(BPHandle = 0x00000008)  returns 0x00 (0000ms, 0276ms total)
T3048 000:826 JLINK_ReadReg(R0)  returns 0x00000000 (0000ms, 0276ms total)
T3048 000:826 JLINK_WriteMem(0x20000164, 0x0400 Bytes, ...) -- Data:  09 69 21 F0 04 01 4F F0 E0 22 11 61 70 47 00 00 ... -- CPU_WriteMem(1024 bytes @ 0x20000164)  returns 0x400 (0013ms, 0289ms total)
T3048 000:839 JLINK_WriteReg(R0, 0x08000400)  returns 0x00 (0000ms, 0289ms total)
T3048 000:839 JLINK_WriteReg(R1, 0x00000400)  returns 0x00 (0000ms, 0289ms total)
T3048 000:839 JLINK_WriteReg(R2, 0x20000164)  returns 0x00 (0000ms, 0289ms total)
T3048 000:839 JLINK_WriteReg(R3, 0x00000000)  returns 0x00 (0000ms, 0289ms total)
T3048 000:839 JLINK_WriteReg(R4, 0x00000000)  returns 0x00 (0000ms, 0289ms total)
T3048 000:839 JLINK_WriteReg(R5, 0x00000000)  returns 0x00 (0000ms, 0289ms total)
T3048 000:839 JLINK_WriteReg(R6, 0x00000000)  returns 0x00 (0000ms, 0289ms total)
T3048 000:839 JLINK_WriteReg(R7, 0x00000000)  returns 0x00 (0000ms, 0289ms total)
T3048 000:839 JLINK_WriteReg(R8, 0x00000000)  returns 0x00 (0000ms, 0289ms total)
T3048 000:839 JLINK_WriteReg(R9, 0x20000160)  returns 0x00 (0000ms, 0289ms total)
T3048 000:839 JLINK_WriteReg(R10, 0x00000000)  returns 0x00 (0000ms, 0289ms total)
T3048 000:839 JLINK_WriteReg(R11, 0x00000000)  returns 0x00 (0000ms, 0289ms total)
T3048 000:839 JLINK_WriteReg(R12, 0x00000000)  returns 0x00 (0000ms, 0289ms total)
T3048 000:839 JLINK_WriteReg(R13, 0x20000800)  returns 0x00 (0000ms, 0289ms total)
T3048 000:839 JLINK_WriteReg(R14, 0x20000001)  returns 0x00 (0000ms, 0289ms total)
T3048 000:839 JLINK_WriteReg(R15, 0x200000F4)  returns 0x00 (0000ms, 0289ms total)
T3048 000:839 JLINK_WriteReg(XPSR, 0x01000000)  returns 0x00 (0000ms, 0289ms total)
T3048 000:839 JLINK_WriteReg(MSP, 0x20000800)  returns 0x00 (0000ms, 0289ms total)
T3048 000:839 JLINK_WriteReg(PSP, 0x20000800)  returns 0x00 (0000ms, 0289ms total)
T3048 000:839 JLINK_WriteReg(CFBP, 0x00000000)  returns 0x00 (0000ms, 0289ms total)
T3048 000:839 JLINK_SetBPEx(Addr = 0x20000000, Type = 0xFFFFFFF2)  returns 0x00000009 (0000ms, 0289ms total)
T3048 000:839 JLINK_Go() (0003ms, 0292ms total)
T3048 000:842 JLINK_IsHalted()  returns FALSE (0000ms, 0292ms total)
T3048 000:849 JLINK_IsHalted()  returns FALSE (0001ms, 0293ms total)
T3048 000:852 JLINK_IsHalted()  returns FALSE (0001ms, 0293ms total)
T3048 000:855 JLINK_IsHalted()  returns FALSE (0001ms, 0293ms total)
T3048 000:893 JLINK_IsHalted() -- CPU_ReadMem(2 bytes @ 0x20000000)  returns TRUE (0005ms, 0297ms total)
T3048 000:898 JLINK_ReadReg(R15)  returns 0x20000000 (0000ms, 0292ms total)
T3048 000:898 JLINK_ClrBPEx(BPHandle = 0x00000009)  returns 0x00 (0000ms, 0292ms total)
T3048 000:898 JLINK_ReadReg(R0)  returns 0x00000000 (0000ms, 0292ms total)
T3048 000:898 JLINK_WriteMem(0x20000164, 0x0400 Bytes, ...) -- Data:  00 BF 00 BF 70 47 10 B5 01 46 00 22 00 23 00 20 ... -- CPU_WriteMem(1024 bytes @ 0x20000164)  returns 0x400 (0013ms, 0305ms total)
T3048 000:911 JLINK_WriteReg(R0, 0x08000800)  returns 0x00 (0000ms, 0305ms total)
T3048 000:911 JLINK_WriteReg(R1, 0x00000400)  returns 0x00 (0000ms, 0305ms total)
T3048 000:911 JLINK_WriteReg(R2, 0x20000164)  returns 0x00 (0000ms, 0305ms total)
T3048 000:911 JLINK_WriteReg(R3, 0x00000000)  returns 0x00 (0000ms, 0305ms total)
T3048 000:911 JLINK_WriteReg(R4, 0x00000000)  returns 0x00 (0000ms, 0305ms total)
T3048 000:911 JLINK_WriteReg(R5, 0x00000000)  returns 0x00 (0000ms, 0305ms total)
T3048 000:911 JLINK_WriteReg(R6, 0x00000000)  returns 0x00 (0000ms, 0305ms total)
T3048 000:911 JLINK_WriteReg(R7, 0x00000000)  returns 0x00 (0000ms, 0305ms total)
T3048 000:911 JLINK_WriteReg(R8, 0x00000000)  returns 0x00 (0000ms, 0305ms total)
T3048 000:911 JLINK_WriteReg(R9, 0x20000160)  returns 0x00 (0000ms, 0305ms total)
T3048 000:911 JLINK_WriteReg(R10, 0x00000000)  returns 0x00 (0000ms, 0305ms total)
T3048 000:911 JLINK_WriteReg(R11, 0x00000000)  returns 0x00 (0000ms, 0305ms total)
T3048 000:911 JLINK_WriteReg(R12, 0x00000000)  returns 0x00 (0000ms, 0305ms total)
T3048 000:911 JLINK_WriteReg(R13, 0x20000800)  returns 0x00 (0000ms, 0305ms total)
T3048 000:911 JLINK_WriteReg(R14, 0x20000001)  returns 0x00 (0000ms, 0305ms total)
T3048 000:911 JLINK_WriteReg(R15, 0x200000F4)  returns 0x00 (0000ms, 0305ms total)
T3048 000:911 JLINK_WriteReg(XPSR, 0x01000000)  returns 0x00 (0000ms, 0305ms total)
T3048 000:911 JLINK_WriteReg(MSP, 0x20000800)  returns 0x00 (0000ms, 0305ms total)
T3048 000:911 JLINK_WriteReg(PSP, 0x20000800)  returns 0x00 (0000ms, 0305ms total)
T3048 000:911 JLINK_WriteReg(CFBP, 0x00000000)  returns 0x00 (0000ms, 0305ms total)
T3048 000:911 JLINK_SetBPEx(Addr = 0x20000000, Type = 0xFFFFFFF2)  returns 0x0000000A (0000ms, 0305ms total)
T3048 000:911 JLINK_Go() (0003ms, 0308ms total)
T3048 000:914 JLINK_IsHalted()  returns FALSE (0001ms, 0309ms total)
T3048 000:959 JLINK_IsHalted() -- CPU_ReadMem(2 bytes @ 0x20000000)  returns TRUE (0004ms, 0312ms total)
T3048 000:963 JLINK_ReadReg(R15)  returns 0x20000000 (0000ms, 0308ms total)
T3048 000:963 JLINK_ClrBPEx(BPHandle = 0x0000000A)  returns 0x00 (0000ms, 0308ms total)
T3048 000:963 JLINK_ReadReg(R0)  returns 0x00000000 (0000ms, 0308ms total)
T3048 000:964 JLINK_WriteMem(0x20000164, 0x0400 Bytes, ...) -- Data:  00 20 70 47 0C 49 14 31 08 60 70 47 01 46 00 20 ... -- CPU_WriteMem(1024 bytes @ 0x20000164)  returns 0x400 (0013ms, 0321ms total)
T3048 000:977 JLINK_WriteReg(R0, 0x08000C00)  returns 0x00 (0000ms, 0321ms total)
T3048 000:977 JLINK_WriteReg(R1, 0x00000400)  returns 0x00 (0000ms, 0321ms total)
T3048 000:977 JLINK_WriteReg(R2, 0x20000164)  returns 0x00 (0000ms, 0321ms total)
T3048 000:977 JLINK_WriteReg(R3, 0x00000000)  returns 0x00 (0000ms, 0321ms total)
T3048 000:977 JLINK_WriteReg(R4, 0x00000000)  returns 0x00 (0000ms, 0321ms total)
T3048 000:977 JLINK_WriteReg(R5, 0x00000000)  returns 0x00 (0000ms, 0321ms total)
T3048 000:977 JLINK_WriteReg(R6, 0x00000000)  returns 0x00 (0000ms, 0321ms total)
T3048 000:977 JLINK_WriteReg(R7, 0x00000000)  returns 0x00 (0000ms, 0321ms total)
T3048 000:977 JLINK_WriteReg(R8, 0x00000000)  returns 0x00 (0000ms, 0321ms total)
T3048 000:977 JLINK_WriteReg(R9, 0x20000160)  returns 0x00 (0000ms, 0321ms total)
T3048 000:977 JLINK_WriteReg(R10, 0x00000000)  returns 0x00 (0000ms, 0321ms total)
T3048 000:977 JLINK_WriteReg(R11, 0x00000000)  returns 0x00 (0000ms, 0321ms total)
T3048 000:977 JLINK_WriteReg(R12, 0x00000000)  returns 0x00 (0000ms, 0321ms total)
T3048 000:977 JLINK_WriteReg(R13, 0x20000800)  returns 0x00 (0000ms, 0321ms total)
T3048 000:977 JLINK_WriteReg(R14, 0x20000001)  returns 0x00 (0000ms, 0321ms total)
T3048 000:977 JLINK_WriteReg(R15, 0x200000F4)  returns 0x00 (0000ms, 0321ms total)
T3048 000:977 JLINK_WriteReg(XPSR, 0x01000000)  returns 0x00 (0000ms, 0321ms total)
T3048 000:977 JLINK_WriteReg(MSP, 0x20000800)  returns 0x00 (0000ms, 0321ms total)
T3048 000:977 JLINK_WriteReg(PSP, 0x20000800)  returns 0x00 (0000ms, 0321ms total)
T3048 000:977 JLINK_WriteReg(CFBP, 0x00000000)  returns 0x00 (0000ms, 0321ms total)
T3048 000:977 JLINK_SetBPEx(Addr = 0x20000000, Type = 0xFFFFFFF2)  returns 0x0000000B (0000ms, 0321ms total)
T3048 000:977 JLINK_Go() (0003ms, 0324ms total)
T3048 000:980 JLINK_IsHalted()  returns FALSE (0001ms, 0325ms total)
T3048 001:055 JLINK_IsHalted() -- CPU_ReadMem(2 bytes @ 0x20000000)  returns TRUE (0005ms, 0329ms total)
T3048 001:060 JLINK_ReadReg(R15)  returns 0x20000000 (0000ms, 0324ms total)
T3048 001:060 JLINK_ClrBPEx(BPHandle = 0x0000000B)  returns 0x00 (0000ms, 0324ms total)
T3048 001:060 JLINK_ReadReg(R0)  returns 0x00000000 (0000ms, 0324ms total)
T3048 001:060 JLINK_WriteMem(0x20000164, 0x0400 Bytes, ...) -- Data:  40 14 FF F7 45 FD 00 21 60 14 FF F7 41 FD 70 E0 ... -- CPU_WriteMem(1024 bytes @ 0x20000164)  returns 0x400 (0013ms, 0337ms total)
T3048 001:073 JLINK_WriteReg(R0, 0x08001000)  returns 0x00 (0000ms, 0337ms total)
T3048 001:073 JLINK_WriteReg(R1, 0x00000400)  returns 0x00 (0000ms, 0337ms total)
T3048 001:073 JLINK_WriteReg(R2, 0x20000164)  returns 0x00 (0000ms, 0337ms total)
T3048 001:073 JLINK_WriteReg(R3, 0x00000000)  returns 0x00 (0000ms, 0337ms total)
T3048 001:073 JLINK_WriteReg(R4, 0x00000000)  returns 0x00 (0000ms, 0337ms total)
T3048 001:073 JLINK_WriteReg(R5, 0x00000000)  returns 0x00 (0000ms, 0337ms total)
T3048 001:073 JLINK_WriteReg(R6, 0x00000000)  returns 0x00 (0000ms, 0337ms total)
T3048 001:073 JLINK_WriteReg(R7, 0x00000000)  returns 0x00 (0000ms, 0337ms total)
T3048 001:073 JLINK_WriteReg(R8, 0x00000000)  returns 0x00 (0000ms, 0337ms total)
T3048 001:073 JLINK_WriteReg(R9, 0x20000160)  returns 0x00 (0000ms, 0337ms total)
T3048 001:073 JLINK_WriteReg(R10, 0x00000000)  returns 0x00 (0000ms, 0337ms total)
T3048 001:073 JLINK_WriteReg(R11, 0x00000000)  returns 0x00 (0000ms, 0337ms total)
T3048 001:073 JLINK_WriteReg(R12, 0x00000000)  returns 0x00 (0000ms, 0337ms total)
T3048 001:073 JLINK_WriteReg(R13, 0x20000800)  returns 0x00 (0000ms, 0337ms total)
T3048 001:073 JLINK_WriteReg(R14, 0x20000001)  returns 0x00 (0001ms, 0338ms total)
T3048 001:074 JLINK_WriteReg(R15, 0x200000F4)  returns 0x00 (0000ms, 0338ms total)
T3048 001:074 JLINK_WriteReg(XPSR, 0x01000000)  returns 0x00 (0000ms, 0338ms total)
T3048 001:074 JLINK_WriteReg(MSP, 0x20000800)  returns 0x00 (0000ms, 0338ms total)
T3048 001:074 JLINK_WriteReg(PSP, 0x20000800)  returns 0x00 (0000ms, 0338ms total)
T3048 001:074 JLINK_WriteReg(CFBP, 0x00000000)  returns 0x00 (0000ms, 0338ms total)
T3048 001:074 JLINK_SetBPEx(Addr = 0x20000000, Type = 0xFFFFFFF2)  returns 0x0000000C (0000ms, 0338ms total)
T3048 001:074 JLINK_Go() (0002ms, 0340ms total)
T3048 001:076 JLINK_IsHalted()  returns FALSE (0001ms, 0341ms total)
T3048 001:119 JLINK_IsHalted() -- CPU_ReadMem(2 bytes @ 0x20000000)  returns TRUE (0005ms, 0345ms total)
T3048 001:124 JLINK_ReadReg(R15)  returns 0x20000000 (0000ms, 0340ms total)
T3048 001:124 JLINK_ClrBPEx(BPHandle = 0x0000000C)  returns 0x00 (0000ms, 0340ms total)
T3048 001:124 JLINK_ReadReg(R0)  returns 0x00000000 (0000ms, 0340ms total)
T3048 001:124 JLINK_WriteMem(0x20000164, 0x0400 Bytes, ...) -- Data:  4E F6 FF 7C 07 EA 0C 07 07 84 82 8B 01 8C 4F F6 ... -- CPU_WriteMem(1024 bytes @ 0x20000164)  returns 0x400 (0013ms, 0353ms total)
T3048 001:137 JLINK_WriteReg(R0, 0x08001400)  returns 0x00 (0000ms, 0353ms total)
T3048 001:137 JLINK_WriteReg(R1, 0x00000400)  returns 0x00 (0000ms, 0353ms total)
T3048 001:137 JLINK_WriteReg(R2, 0x20000164)  returns 0x00 (0000ms, 0353ms total)
T3048 001:137 JLINK_WriteReg(R3, 0x00000000)  returns 0x00 (0000ms, 0353ms total)
T3048 001:137 JLINK_WriteReg(R4, 0x00000000)  returns 0x00 (0000ms, 0353ms total)
T3048 001:137 JLINK_WriteReg(R5, 0x00000000)  returns 0x00 (0000ms, 0353ms total)
T3048 001:137 JLINK_WriteReg(R6, 0x00000000)  returns 0x00 (0000ms, 0353ms total)
T3048 001:137 JLINK_WriteReg(R7, 0x00000000)  returns 0x00 (0000ms, 0353ms total)
T3048 001:137 JLINK_WriteReg(R8, 0x00000000)  returns 0x00 (0000ms, 0353ms total)
T3048 001:137 JLINK_WriteReg(R9, 0x20000160)  returns 0x00 (0000ms, 0353ms total)
T3048 001:137 JLINK_WriteReg(R10, 0x00000000)  returns 0x00 (0000ms, 0353ms total)
T3048 001:137 JLINK_WriteReg(R11, 0x00000000)  returns 0x00 (0000ms, 0353ms total)
T3048 001:137 JLINK_WriteReg(R12, 0x00000000)  returns 0x00 (0000ms, 0353ms total)
T3048 001:137 JLINK_WriteReg(R13, 0x20000800)  returns 0x00 (0000ms, 0353ms total)
T3048 001:137 JLINK_WriteReg(R14, 0x20000001)  returns 0x00 (0000ms, 0353ms total)
T3048 001:137 JLINK_WriteReg(R15, 0x200000F4)  returns 0x00 (0000ms, 0353ms total)
T3048 001:137 JLINK_WriteReg(XPSR, 0x01000000)  returns 0x00 (0000ms, 0353ms total)
T3048 001:137 JLINK_WriteReg(MSP, 0x20000800)  returns 0x00 (0000ms, 0353ms total)
T3048 001:137 JLINK_WriteReg(PSP, 0x20000800)  returns 0x00 (0000ms, 0353ms total)
T3048 001:137 JLINK_WriteReg(CFBP, 0x00000000)  returns 0x00 (0000ms, 0353ms total)
T3048 001:137 JLINK_SetBPEx(Addr = 0x20000000, Type = 0xFFFFFFF2)  returns 0x0000000D (0000ms, 0353ms total)
T3048 001:137 JLINK_Go() (0003ms, 0356ms total)
T3048 001:140 JLINK_IsHalted()  returns FALSE (0001ms, 0357ms total)
T3048 001:146 JLINK_IsHalted()  returns FALSE (0001ms, 0357ms total)
T3048 001:149 JLINK_IsHalted()  returns FALSE (0001ms, 0357ms total)
T3048 001:158 JLINK_IsHalted()  returns FALSE (0000ms, 0356ms total)
T3048 001:160 JLINK_IsHalted()  returns FALSE (0000ms, 0356ms total)
T3048 001:162 JLINK_IsHalted()  returns FALSE (0001ms, 0357ms total)
T3048 001:165 JLINK_IsHalted()  returns FALSE (0001ms, 0357ms total)
T3048 001:173 JLINK_IsHalted() -- CPU_ReadMem(2 bytes @ 0x20000000)  returns TRUE (0005ms, 0361ms total)
T3048 001:178 JLINK_ReadReg(R15)  returns 0x20000000 (0000ms, 0356ms total)
T3048 001:178 JLINK_ClrBPEx(BPHandle = 0x0000000D)  returns 0x00 (0000ms, 0356ms total)
T3048 001:178 JLINK_ReadReg(R0)  returns 0x00000000 (0000ms, 0356ms total)
T3048 001:178 JLINK_WriteMem(0x20000164, 0x0400 Bytes, ...) -- Data:  70 47 1A B1 83 89 0B 43 83 81 02 E0 83 89 8B 43 ... -- CPU_WriteMem(1024 bytes @ 0x20000164)  returns 0x400 (0013ms, 0369ms total)
T3048 001:191 JLINK_WriteReg(R0, 0x08001800)  returns 0x00 (0000ms, 0369ms total)
T3048 001:191 JLINK_WriteReg(R1, 0x00000400)  returns 0x00 (0000ms, 0369ms total)
T3048 001:191 JLINK_WriteReg(R2, 0x20000164)  returns 0x00 (0000ms, 0369ms total)
T3048 001:191 JLINK_WriteReg(R3, 0x00000000)  returns 0x00 (0000ms, 0369ms total)
T3048 001:191 JLINK_WriteReg(R4, 0x00000000)  returns 0x00 (0000ms, 0369ms total)
T3048 001:191 JLINK_WriteReg(R5, 0x00000000)  returns 0x00 (0000ms, 0369ms total)
T3048 001:191 JLINK_WriteReg(R6, 0x00000000)  returns 0x00 (0000ms, 0369ms total)
T3048 001:191 JLINK_WriteReg(R7, 0x00000000)  returns 0x00 (0000ms, 0369ms total)
T3048 001:191 JLINK_WriteReg(R8, 0x00000000)  returns 0x00 (0000ms, 0369ms total)
T3048 001:191 JLINK_WriteReg(R9, 0x20000160)  returns 0x00 (0000ms, 0369ms total)
T3048 001:191 JLINK_WriteReg(R10, 0x00000000)  returns 0x00 (0000ms, 0369ms total)
T3048 001:191 JLINK_WriteReg(R11, 0x00000000)  returns 0x00 (0000ms, 0369ms total)
T3048 001:191 JLINK_WriteReg(R12, 0x00000000)  returns 0x00 (0000ms, 0369ms total)
T3048 001:191 JLINK_WriteReg(R13, 0x20000800)  returns 0x00 (0000ms, 0369ms total)
T3048 001:191 JLINK_WriteReg(R14, 0x20000001)  returns 0x00 (0000ms, 0369ms total)
T3048 001:191 JLINK_WriteReg(R15, 0x200000F4)  returns 0x00 (0000ms, 0369ms total)
T3048 001:191 JLINK_WriteReg(XPSR, 0x01000000)  returns 0x00 (0000ms, 0369ms total)
T3048 001:191 JLINK_WriteReg(MSP, 0x20000800)  returns 0x00 (0000ms, 0369ms total)
T3048 001:191 JLINK_WriteReg(PSP, 0x20000800)  returns 0x00 (0000ms, 0369ms total)
T3048 001:191 JLINK_WriteReg(CFBP, 0x00000000)  returns 0x00 (0000ms, 0369ms total)
T3048 001:191 JLINK_SetBPEx(Addr = 0x20000000, Type = 0xFFFFFFF2)  returns 0x0000000E (0000ms, 0369ms total)
T3048 001:191 JLINK_Go() (0003ms, 0372ms total)
T3048 001:194 JLINK_IsHalted()  returns FALSE (0001ms, 0373ms total)
T3048 001:253 JLINK_IsHalted() -- CPU_ReadMem(2 bytes @ 0x20000000)  returns TRUE (0004ms, 0376ms total)
T3048 001:257 JLINK_ReadReg(R15)  returns 0x20000000 (0000ms, 0372ms total)
T3048 001:257 JLINK_ClrBPEx(BPHandle = 0x0000000E)  returns 0x00 (0000ms, 0372ms total)
T3048 001:257 JLINK_ReadReg(R0)  returns 0x00000000 (0000ms, 0372ms total)
T3048 001:258 JLINK_WriteMem(0x20000164, 0x0400 Bytes, ...) -- Data:  8D 40 AC B2 1D 8C A5 43 1D 84 09 B1 08 29 09 D1 ... -- CPU_WriteMem(1024 bytes @ 0x20000164)  returns 0x400 (0014ms, 0386ms total)
T3048 001:272 JLINK_WriteReg(R0, 0x08001C00)  returns 0x00 (0000ms, 0386ms total)
T3048 001:272 JLINK_WriteReg(R1, 0x00000400)  returns 0x00 (0000ms, 0386ms total)
T3048 001:272 JLINK_WriteReg(R2, 0x20000164)  returns 0x00 (0000ms, 0386ms total)
T3048 001:272 JLINK_WriteReg(R3, 0x00000000)  returns 0x00 (0000ms, 0386ms total)
T3048 001:272 JLINK_WriteReg(R4, 0x00000000)  returns 0x00 (0000ms, 0386ms total)
T3048 001:272 JLINK_WriteReg(R5, 0x00000000)  returns 0x00 (0000ms, 0386ms total)
T3048 001:272 JLINK_WriteReg(R6, 0x00000000)  returns 0x00 (0000ms, 0386ms total)
T3048 001:272 JLINK_WriteReg(R7, 0x00000000)  returns 0x00 (0000ms, 0386ms total)
T3048 001:272 JLINK_WriteReg(R8, 0x00000000)  returns 0x00 (0000ms, 0386ms total)
T3048 001:272 JLINK_WriteReg(R9, 0x20000160)  returns 0x00 (0000ms, 0386ms total)
T3048 001:272 JLINK_WriteReg(R10, 0x00000000)  returns 0x00 (0000ms, 0386ms total)
T3048 001:272 JLINK_WriteReg(R11, 0x00000000)  returns 0x00 (0000ms, 0386ms total)
T3048 001:272 JLINK_WriteReg(R12, 0x00000000)  returns 0x00 (0000ms, 0386ms total)
T3048 001:272 JLINK_WriteReg(R13, 0x20000800)  returns 0x00 (0000ms, 0386ms total)
T3048 001:272 JLINK_WriteReg(R14, 0x20000001)  returns 0x00 (0000ms, 0386ms total)
T3048 001:272 JLINK_WriteReg(R15, 0x200000F4)  returns 0x00 (0000ms, 0386ms total)
T3048 001:272 JLINK_WriteReg(XPSR, 0x01000000)  returns 0x00 (0000ms, 0386ms total)
T3048 001:272 JLINK_WriteReg(MSP, 0x20000800)  returns 0x00 (0000ms, 0386ms total)
T3048 001:272 JLINK_WriteReg(PSP, 0x20000800)  returns 0x00 (0000ms, 0386ms total)
T3048 001:272 JLINK_WriteReg(CFBP, 0x00000000)  returns 0x00 (0000ms, 0386ms total)
T3048 001:272 JLINK_SetBPEx(Addr = 0x20000000, Type = 0xFFFFFFF2)  returns 0x0000000F (0000ms, 0386ms total)
T3048 001:272 JLINK_Go() (0003ms, 0389ms total)
T3048 001:275 JLINK_IsHalted()  returns FALSE (0000ms, 0389ms total)
T3048 001:283 JLINK_IsHalted()  returns FALSE (0001ms, 0390ms total)
T3048 001:286 JLINK_IsHalted()  returns FALSE (0001ms, 0390ms total)
T3048 001:289 JLINK_IsHalted()  returns FALSE (0001ms, 0390ms total)
T3048 001:292 JLINK_IsHalted()  returns FALSE (0001ms, 0390ms total)
T3048 001:295 JLINK_IsHalted()  returns FALSE (0001ms, 0390ms total)
T3048 001:391 JLINK_IsHalted() -- CPU_ReadMem(2 bytes @ 0x20000000)  returns TRUE (0004ms, 0393ms total)
T3048 001:395 JLINK_ReadReg(R15)  returns 0x20000000 (0000ms, 0389ms total)
T3048 001:395 JLINK_ClrBPEx(BPHandle = 0x0000000F)  returns 0x00 (0001ms, 0390ms total)
T3048 001:396 JLINK_ReadReg(R0)  returns 0x00000000 (0000ms, 0390ms total)
T3048 001:396 JLINK_WriteMem(0x20000164, 0x0400 Bytes, ...) -- Data:  02 83 02 8B 42 EA 01 22 02 83 70 47 02 8B 02 F4 ... -- CPU_WriteMem(1024 bytes @ 0x20000164)  returns 0x400 (0013ms, 0403ms total)
T3048 001:409 JLINK_WriteReg(R0, 0x08002000)  returns 0x00 (0000ms, 0403ms total)
T3048 001:409 JLINK_WriteReg(R1, 0x00000400)  returns 0x00 (0000ms, 0403ms total)
T3048 001:409 JLINK_WriteReg(R2, 0x20000164)  returns 0x00 (0000ms, 0403ms total)
T3048 001:409 JLINK_WriteReg(R3, 0x00000000)  returns 0x00 (0000ms, 0403ms total)
T3048 001:409 JLINK_WriteReg(R4, 0x00000000)  returns 0x00 (0000ms, 0403ms total)
T3048 001:409 JLINK_WriteReg(R5, 0x00000000)  returns 0x00 (0000ms, 0403ms total)
T3048 001:409 JLINK_WriteReg(R6, 0x00000000)  returns 0x00 (0000ms, 0403ms total)
T3048 001:409 JLINK_WriteReg(R7, 0x00000000)  returns 0x00 (0000ms, 0403ms total)
T3048 001:409 JLINK_WriteReg(R8, 0x00000000)  returns 0x00 (0000ms, 0403ms total)
T3048 001:409 JLINK_WriteReg(R9, 0x20000160)  returns 0x00 (0000ms, 0403ms total)
T3048 001:409 JLINK_WriteReg(R10, 0x00000000)  returns 0x00 (0000ms, 0403ms total)
T3048 001:409 JLINK_WriteReg(R11, 0x00000000)  returns 0x00 (0000ms, 0403ms total)
T3048 001:409 JLINK_WriteReg(R12, 0x00000000)  returns 0x00 (0000ms, 0403ms total)
T3048 001:409 JLINK_WriteReg(R13, 0x20000800)  returns 0x00 (0000ms, 0403ms total)
T3048 001:409 JLINK_WriteReg(R14, 0x20000001)  returns 0x00 (0000ms, 0403ms total)
T3048 001:409 JLINK_WriteReg(R15, 0x200000F4)  returns 0x00 (0000ms, 0403ms total)
T3048 001:409 JLINK_WriteReg(XPSR, 0x01000000)  returns 0x00 (0000ms, 0403ms total)
T3048 001:409 JLINK_WriteReg(MSP, 0x20000800)  returns 0x00 (0000ms, 0403ms total)
T3048 001:409 JLINK_WriteReg(PSP, 0x20000800)  returns 0x00 (0000ms, 0403ms total)
T3048 001:409 JLINK_WriteReg(CFBP, 0x00000000)  returns 0x00 (0000ms, 0403ms total)
T3048 001:409 JLINK_SetBPEx(Addr = 0x20000000, Type = 0xFFFFFFF2)  returns 0x00000010 (0000ms, 0403ms total)
T3048 001:409 JLINK_Go() (0004ms, 0407ms total)
T3048 001:413 JLINK_IsHalted()  returns FALSE (0001ms, 0408ms total)
T3048 001:457 JLINK_IsHalted() -- CPU_ReadMem(2 bytes @ 0x20000000)  returns TRUE (0004ms, 0411ms total)
T3048 001:461 JLINK_ReadReg(R15)  returns 0x20000000 (0000ms, 0407ms total)
T3048 001:461 JLINK_ClrBPEx(BPHandle = 0x00000010)  returns 0x00 (0000ms, 0407ms total)
T3048 001:461 JLINK_ReadReg(R0)  returns 0x00000000 (0000ms, 0407ms total)
T3048 001:462 JLINK_WriteMem(0x20000164, 0x0400 Bytes, ...) -- Data:  E5 49 08 80 00 24 2A E0 E8 48 00 68 A0 F5 1C 40 ... -- CPU_WriteMem(1024 bytes @ 0x20000164)  returns 0x400 (0013ms, 0420ms total)
T3048 001:475 JLINK_WriteReg(R0, 0x08002400)  returns 0x00 (0000ms, 0420ms total)
T3048 001:475 JLINK_WriteReg(R1, 0x00000400)  returns 0x00 (0000ms, 0420ms total)
T3048 001:475 JLINK_WriteReg(R2, 0x20000164)  returns 0x00 (0000ms, 0420ms total)
T3048 001:475 JLINK_WriteReg(R3, 0x00000000)  returns 0x00 (0000ms, 0420ms total)
T3048 001:475 JLINK_WriteReg(R4, 0x00000000)  returns 0x00 (0000ms, 0420ms total)
T3048 001:475 JLINK_WriteReg(R5, 0x00000000)  returns 0x00 (0000ms, 0420ms total)
T3048 001:475 JLINK_WriteReg(R6, 0x00000000)  returns 0x00 (0000ms, 0420ms total)
T3048 001:475 JLINK_WriteReg(R7, 0x00000000)  returns 0x00 (0000ms, 0420ms total)
T3048 001:475 JLINK_WriteReg(R8, 0x00000000)  returns 0x00 (0000ms, 0420ms total)
T3048 001:475 JLINK_WriteReg(R9, 0x20000160)  returns 0x00 (0001ms, 0421ms total)
T3048 001:476 JLINK_WriteReg(R10, 0x00000000)  returns 0x00 (0000ms, 0421ms total)
T3048 001:476 JLINK_WriteReg(R11, 0x00000000)  returns 0x00 (0000ms, 0421ms total)
T3048 001:476 JLINK_WriteReg(R12, 0x00000000)  returns 0x00 (0000ms, 0421ms total)
T3048 001:476 JLINK_WriteReg(R13, 0x20000800)  returns 0x00 (0000ms, 0421ms total)
T3048 001:476 JLINK_WriteReg(R14, 0x20000001)  returns 0x00 (0000ms, 0421ms total)
T3048 001:476 JLINK_WriteReg(R15, 0x200000F4)  returns 0x00 (0000ms, 0421ms total)
T3048 001:476 JLINK_WriteReg(XPSR, 0x01000000)  returns 0x00 (0000ms, 0421ms total)
T3048 001:476 JLINK_WriteReg(MSP, 0x20000800)  returns 0x00 (0000ms, 0421ms total)
T3048 001:476 JLINK_WriteReg(PSP, 0x20000800)  returns 0x00 (0000ms, 0421ms total)
T3048 001:476 JLINK_WriteReg(CFBP, 0x00000000)  returns 0x00 (0000ms, 0421ms total)
T3048 001:476 JLINK_SetBPEx(Addr = 0x20000000, Type = 0xFFFFFFF2)  returns 0x00000011 (0000ms, 0421ms total)
